
TB6B4 001:625 SEGGER J-Link V4.96d Log File (0001ms, 1613ms total)
TB6B4 001:625 DLL Compiled: Jan 29 2015 11:45:37 (0001ms, 1613ms total)
TB6B4 001:625 Logging started @ 2015-07-08 10:02 (0001ms, 1613ms total)
TB6B4 001:626 JLINK_SetWarnOutHandler(...) (0000ms, 1613ms total)
TB6B4 001:626 JLINK_OpenEx(...)
Firmware: J-Link ARM V8 compiled Sep  2 2011 17:54:36
Hardware: V8.00
S/N: 91999999
Feature(s): RDI,FlashDL,FlashBP,JFlash,GDBFULL  returns O.K. (0873ms, 2486ms total)
TB6B4 002:499 JLINK_SetErrorOutHandler(...) (0000ms, 2486ms total)
TB6B4 002:499 JLINK_ExecCommand("ProjectFile = "C:\Users\Wangzx\Desktop\下位机源码（Keil4.72+STM32）\Proj\JLinkSettings.ini"", ...)  returns 0x00 (0003ms, 2489ms total)
TB6B4 002:506 JLINK_ExecCommand("Device = STM32F103ZE", ...)Device "STM32F103ZE" selected.  returns 0x00 (0004ms, 2493ms total)
TB6B4 002:510 JLINK_ExecCommand("DisableConnectionTimeout", ...)  returns 0x01 (0000ms, 2493ms total)
TB6B4 002:510 JLINK_GetHardwareVersion()  returns 0x13880 (0000ms, 2493ms total)
TB6B4 002:510 JLINK_GetDLLVersion()  returns 49604 (0000ms, 2493ms total)
TB6B4 002:510 JLINK_GetFirmwareString(...) (0000ms, 2493ms total)
TB6B4 002:513 JLINK_GetDLLVersion()  returns 49604 (0000ms, 2493ms total)
TB6B4 002:513 JLINK_GetCompileDateTime() (0000ms, 2493ms total)
TB6B4 002:514 JLINK_GetFirmwareString(...) (0000ms, 2493ms total)
TB6B4 002:515 JLINK_GetHardwareVersion()  returns 0x13880 (0000ms, 2493ms total)
TB6B4 002:519 JLINK_TIF_Select(JLINKARM_TIF_JTAG)  returns 0x00 (0001ms, 2494ms total)
TB6B4 002:521 JLINK_SetSpeed(20000) (0000ms, 2495ms total)
TB6B4 002:521 JLINK_GetIdData(...) >0x2F8 JTAG>TotalIRLen = 9, IRPrint = 0x0011 >0x30 JTAG> >0x210 JTAG> >0x40 JTAG> >0x40 JTAG> >0x40 JTAG> >0x30 JTAG> >0x40 JTAG> >0x40 JTAG> >0x40 JTAG> >0x40 JTAG> >0x40 JTAG> >0x40 JTAG> >0x40 JTAG> >0x40 JTAG> >0x40 JTAG> >0x40 JTAG> >0x2F8 JTAG>TotalIRLen = 9, IRPrint = 0x0011 >0x30 JTAG> >0x210 JTAG> >0x70 JTAG> >0x40 JTAG> >0x40 JTAG> >0x40 JTAG> >0x50 JTAG> >0x80 JTAG> >0x40 JTAG> >0x30 JTAG> >0x40 JTAG> >0x40 JTAG> >0x30 JTAG> >0x40 JTAG> >0x50 JTAG>
Found Cortex-M3 r1p1, Little endian. -- CPU_WriteMem(4 bytes @ 0xE0002000) -- CPU_ReadMem(4 bytes @ 0xE000EDF0) -- CPU_WriteMem(4 bytes @ 0xE000EDF0) -- CPU_ReadMem(4 bytes @ 0xE0002000)FPUnit: 6 code (BP) slots and 2 literal slots -- CPU_ReadMem(4 bytes @ 0xE000EDFC) -- CPU_WriteMem(4 bytes @ 0xE000EDFC) -- CPU_ReadMem(4 bytes @ 0xE0001000) -- CPU_WriteMem(4 bytes @ 0xE0001000) -- CPU_ReadMem(4 bytes @ 0xE000ED88) -- CPU_WriteMem(4 bytes @ 0xE000ED88) -- CPU_ReadMem(4 bytes @ 0xE000ED88)
 -- CPU_WriteMem(4 bytes @ 0xE000ED88) -- CPU_ReadMem(4 bytes @ 0xE00FF010)TPIU fitted. -- CPU_ReadMem(4 bytes @ 0xE00FF014)ETM fitted. -- CPU_ReadMem(4 bytes @ 0xE00FF018) ScanLen=9 NumDevices=2 aId[0]=0x3BA00477 aIrRead[0]=0 aScanLen[0]=0 aScanRead[0]=0 (0028ms, 2523ms total)
TB6B4 002:549 JLINK_JTAG_GetDeviceID(DeviceIndex = 0)  returns 0x3BA00477 (0000ms, 2523ms total)
TB6B4 002:549 JLINK_JTAG_GetDeviceInfo(DeviceIndex = 0)  returns 0x00 (0000ms, 2523ms total)
TB6B4 002:549 JLINK_JTAG_GetDeviceID(DeviceIndex = 1)  returns 0x6414041 (0000ms, 2523ms total)
TB6B4 002:549 JLINK_JTAG_GetDeviceInfo(DeviceIndex = 1)  returns 0x00 (0000ms, 2523ms total)
TB6B4 002:549 JLINK_GetDLLVersion()  returns 49604 (0000ms, 2523ms total)
TB6B4 002:549 JLINK_CORE_GetFound()  returns 0x30000FF (0001ms, 2524ms total)
TB6B4 002:550 JLINK_GetDebugInfo(0x100) -- Value=0xE00FF003  returns 0x00 (0000ms, 2524ms total)
TB6B4 002:551 JLINK_ReadMem (0xE00FF000, 0x0020 Bytes, ...) -- CPU is running -- CPU_ReadMem(32 bytes @ 0xE00FF000) - Data: 03 F0 F0 FF 03 20 F0 FF 03 30 F0 FF 03 10 F0 FF ...  returns 0x00 (0000ms, 2524ms total)
TB6B4 002:551 JLINK_ReadMem (0xE000EFF0, 0x0010 Bytes, ...) -- CPU is running -- CPU_ReadMem(16 bytes @ 0xE000EFF0) - Data: 0D 00 00 00 E0 00 00 00 05 00 00 00 B1 00 00 00  returns 0x00 (0001ms, 2525ms total)
TB6B4 002:552 JLINK_ReadMem (0xE000EFD0, 0x0020 Bytes, ...) -- CPU is running -- CPU_ReadMem(32 bytes @ 0xE000EFD0) - Data: 04 00 00 00 00 00 00 00 00 00 00 00 00 00 00 00 ...  returns 0x00 (0001ms, 2526ms total)
TB6B4 002:553 JLINK_ReadMem (0xE0001FF0, 0x0010 Bytes, ...) -- CPU is running -- CPU_ReadMem(16 bytes @ 0xE0001FF0) - Data: 0D 00 00 00 E0 00 00 00 05 00 00 00 B1 00 00 00  returns 0x00 (0000ms, 2526ms total)
TB6B4 002:553 JLINK_ReadMem (0xE0001FD0, 0x0020 Bytes, ...) -- CPU is running -- CPU_ReadMem(32 bytes @ 0xE0001FD0) - Data: 04 00 00 00 00 00 00 00 00 00 00 00 00 00 00 00 ...  returns 0x00 (0001ms, 2527ms total)
TB6B4 002:554 JLINK_ReadMem (0xE0002FF0, 0x0010 Bytes, ...) -- CPU is running -- CPU_ReadMem(16 bytes @ 0xE0002FF0) - Data: 0D 00 00 00 E0 00 00 00 05 00 00 00 B1 00 00 00  returns 0x00 (0000ms, 2527ms total)
TB6B4 002:554 JLINK_ReadMem (0xE0002FD0, 0x0020 Bytes, ...) -- CPU is running -- CPU_ReadMem(32 bytes @ 0xE0002FD0) - Data: 04 00 00 00 00 00 00 00 00 00 00 00 00 00 00 00 ...  returns 0x00 (0002ms, 2529ms total)
TB6B4 002:556 JLINK_ReadMem (0xE0000FF0, 0x0010 Bytes, ...) -- CPU is running -- CPU_ReadMem(16 bytes @ 0xE0000FF0) - Data: 0D 00 00 00 E0 00 00 00 05 00 00 00 B1 00 00 00  returns 0x00 (0000ms, 2529ms total)
TB6B4 002:556 JLINK_ReadMem (0xE0000FD0, 0x0020 Bytes, ...) -- CPU is running -- CPU_ReadMem(32 bytes @ 0xE0000FD0) - Data: 04 00 00 00 00 00 00 00 00 00 00 00 00 00 00 00 ...  returns 0x00 (0001ms, 2530ms total)
TB6B4 002:557 JLINK_ReadMem (0xE0040FF0, 0x0010 Bytes, ...) -- CPU is running -- CPU_ReadMem(16 bytes @ 0xE0040FF0) - Data: 0D 00 00 00 90 00 00 00 05 00 00 00 B1 00 00 00  returns 0x00 (0001ms, 2531ms total)
TB6B4 002:558 JLINK_ReadMem (0xE0040FD0, 0x0020 Bytes, ...) -- CPU is running -- CPU_ReadMem(32 bytes @ 0xE0040FD0) - Data: 04 00 00 00 00 00 00 00 00 00 00 00 00 00 00 00 ...  returns 0x00 (0000ms, 2531ms total)
TB6B4 002:558 JLINK_ReadMem (0xE0041FF0, 0x0010 Bytes, ...) -- CPU is running -- CPU_ReadMem(16 bytes @ 0xE0041FF0) - Data: 0D 00 00 00 90 00 00 00 05 00 00 00 B1 00 00 00  returns 0x00 (0001ms, 2532ms total)
TB6B4 002:559 JLINK_ReadMem (0xE0041FD0, 0x0020 Bytes, ...) -- CPU is running -- CPU_ReadMem(32 bytes @ 0xE0041FD0) - Data: 04 00 00 00 00 00 00 00 00 00 00 00 00 00 00 00 ...  returns 0x00 (0000ms, 2532ms total)
TB6B4 002:559 JLINK_ReadMemU32(0xE000ED00, 0x0001 Items, ...) -- CPU is running -- CPU_ReadMem(4 bytes @ 0xE000ED00) - Data: 31 C2 1F 41  returns 0x01 (0001ms, 2533ms total)
TB6B4 002:560 JLINK_SetResetType(JLINKARM_RESET_TYPE_NORMAL)  returns JLINKARM_RESET_TYPE_NORMAL (0000ms, 2533ms total)
TB6B4 002:560 JLINK_Reset() -- CPU is running -- CPU_WriteMem(4 bytes @ 0xE000EDF0) -- CPU is running -- CPU_WriteMem(4 bytes @ 0xE000EDFC) -- CPU is running -- CPU_WriteMem(4 bytes @ 0xE000ED0C) -- CPU is running -- CPU_ReadMem(4 bytes @ 0xE000EDF0) -- CPU is running -- CPU_ReadMem(4 bytes @ 0xE000EDF0) -- CPU is running -- CPU_WriteMem(4 bytes @ 0xE000EDF0) -- CPU is running -- CPU_WriteMem(4 bytes @ 0xE000EDFC) -- CPU is running -- CPU_ReadMem(4 bytes @ 0xE000EDF0) >0x80 JTAG> >0x40 JTAG> >0x30 JTAG>
 >0x40 JTAG> >0x50 JTAG> >0x40 JTAG> -- CPU_WriteMem(4 bytes @ 0xE000EDFC) -- CPU_WriteMem(4 bytes @ 0xE0001028) -- CPU_WriteMem(4 bytes @ 0xE0001038) -- CPU_WriteMem(4 bytes @ 0xE0001048) -- CPU_WriteMem(4 bytes @ 0xE0001058) -- CPU_WriteMem(4 bytes @ 0xE0002000) -- CPU_ReadMem(4 bytes @ 0xE000EDFC) -- CPU_ReadMem(4 bytes @ 0xE0001000) (0023ms, 2556ms total)
TB6B4 002:583 JLINK_Halt()  returns 0x00 (0000ms, 2556ms total)
TB6B4 002:583 JLINK_IsHalted()  returns TRUE (0000ms, 2556ms total)
TB6B4 002:583 JLINK_ReadMemU32(0xE000EDF0, 0x0001 Items, ...) -- CPU_ReadMem(4 bytes @ 0xE000EDF0) - Data: 03 00 03 00  returns 0x01 (0000ms, 2556ms total)
TB6B4 002:583 JLINK_WriteU32(0xE000EDF0, 0xA05F0003) -- CPU_WriteMem(4 bytes @ 0xE000EDF0)  returns 0x00 (0001ms, 2557ms total)
TB6B4 002:584 JLINK_WriteU32(0xE000EDFC, 0x01000000) -- CPU_WriteMem(4 bytes @ 0xE000EDFC)  returns 0x00 (0000ms, 2557ms total)
TB6B4 002:588 JLINK_GetHWStatus(...)  returns 0x00 (0000ms, 2557ms total)
TB6B4 002:591 JLINK_GetNumBPUnits(Type = 0xFFFFFF00)  returns 0x06 (0000ms, 2557ms total)
TB6B4 002:591 JLINK_GetNumBPUnits(Type = 0xF0)  returns 0x2000 (0000ms, 2557ms total)
TB6B4 002:591 JLINK_GetNumWPUnits()  returns 0x04 (0000ms, 2557ms total)
TB6B4 002:594 JLINK_GetSpeed()  returns 0x2EE0 (0000ms, 2557ms total)
TB6B4 002:595 JLINK_ReadMemU32(0xE000E004, 0x0001 Items, ...) -- CPU_ReadMem(4 bytes @ 0xE000E004) - Data: 01 00 00 00  returns 0x01 (0001ms, 2558ms total)
TB6B4 002:596 JLINK_ReadMemU32(0xE000E004, 0x0001 Items, ...) -- CPU_ReadMem(4 bytes @ 0xE000E004) - Data: 01 00 00 00  returns 0x01 (0000ms, 2558ms total)
TB6B4 002:596 JLINK_WriteMem(0xE0001000, 0x001C Bytes, ...) - Data: 01 00 00 00 00 00 00 00 00 00 00 00 00 00 00 00 ... -- CPU_WriteMem(28 bytes @ 0xE0001000)  returns 0x1C (0001ms, 2559ms total)
TB6B4 002:597 JLINK_ReadMem (0xE0001000, 0x001C Bytes, ...) -- CPU_ReadMem(28 bytes @ 0xE0001000) - Data: 01 00 00 40 00 00 00 00 00 00 00 00 00 00 00 00 ...  returns 0x00 (0001ms, 2560ms total)
TB6B4 002:598 JLINK_Halt()  returns 0x00 (0000ms, 2560ms total)
TB6B4 002:598 JLINK_IsHalted()  returns TRUE (0000ms, 2560ms total)
TB6B4 002:600 JLINK_WriteMem(0x20000000, 0x0164 Bytes, ...) - Data: 00 BE 0A E0 0D 78 2D 06 68 40 08 24 40 00 00 D3 ... -- CPU_WriteMem(356 bytes @ 0x20000000)  returns 0x164 (0003ms, 2563ms total)
TB6B4 002:603 JLINK_WriteReg(R0, 0x08000000)  returns 0x00 (0000ms, 2563ms total)
TB6B4 002:603 JLINK_WriteReg(R1, 0x00B71B00)  returns 0x00 (0000ms, 2563ms total)
TB6B4 002:603 JLINK_WriteReg(R2, 0x00000001)  returns 0x00 (0000ms, 2563ms total)
TB6B4 002:603 JLINK_WriteReg(R3, 0x00000000)  returns 0x00 (0000ms, 2563ms total)
TB6B4 002:603 JLINK_WriteReg(R4, 0x00000000)  returns 0x00 (0000ms, 2563ms total)
TB6B4 002:603 JLINK_WriteReg(R5, 0x00000000)  returns 0x00 (0000ms, 2563ms total)
TB6B4 002:603 JLINK_WriteReg(R6, 0x00000000)  returns 0x00 (0000ms, 2563ms total)
TB6B4 002:603 JLINK_WriteReg(R7, 0x00000000)  returns 0x00 (0000ms, 2563ms total)
TB6B4 002:603 JLINK_WriteReg(R8, 0x00000000)  returns 0x00 (0000ms, 2563ms total)
TB6B4 002:603 JLINK_WriteReg(R9, 0x20000160)  returns 0x00 (0000ms, 2563ms total)
TB6B4 002:603 JLINK_WriteReg(R10, 0x00000000)  returns 0x00 (0000ms, 2563ms total)
TB6B4 002:603 JLINK_WriteReg(R11, 0x00000000)  returns 0x00 (0000ms, 2563ms total)
TB6B4 002:603 JLINK_WriteReg(R12, 0x00000000)  returns 0x00 (0000ms, 2563ms total)
TB6B4 002:603 JLINK_WriteReg(R13 (SP), 0x20000800)  returns 0x00 (0000ms, 2563ms total)
TB6B4 002:603 JLINK_WriteReg(R14, 0x20000001)  returns 0x00 (0000ms, 2563ms total)
TB6B4 002:603 JLINK_WriteReg(R15 (PC), 0x20000038)  returns 0x00 (0000ms, 2563ms total)
TB6B4 002:603 JLINK_WriteReg(XPSR, 0x01000000)  returns 0x00 (0000ms, 2563ms total)
TB6B4 002:603 JLINK_WriteReg(MSP, 0x20000800)  returns 0x00 (0000ms, 2563ms total)
TB6B4 002:603 JLINK_WriteReg(PSP, 0x20000800)  returns 0x00 (0000ms, 2563ms total)
TB6B4 002:603 JLINK_WriteReg(CFBP, 0x00000000)  returns 0x00 (0000ms, 2563ms total)
TB6B4 002:603 JLINK_SetBPEx(Addr = 0x20000000, Type = 0xFFFFFFF2) -- CPU_ReadMem(2 bytes @ 0x20000000)  returns 0x00000001 (0001ms, 2564ms total)
TB6B4 002:604 JLINK_Go() -- CPU_WriteMem(2 bytes @ 0x20000000) -- CPU_WriteMem(4 bytes @ 0xE0002008) -- CPU_WriteMem(4 bytes @ 0xE000200C) -- CPU_WriteMem(4 bytes @ 0xE0002010) -- CPU_WriteMem(4 bytes @ 0xE0002014) -- CPU_WriteMem(4 bytes @ 0xE0002018) -- CPU_WriteMem(4 bytes @ 0xE000201C) -- CPU_WriteMem(4 bytes @ 0xE0001004) (0004ms, 2568ms total)
TB6B4 002:608 JLINK_IsHalted() -- CPU_ReadMem(2 bytes @ 0x20000000)  returns TRUE (0003ms, 2571ms total)
TB6B4 002:611 JLINK_ReadReg(R15 (PC))  returns 0x20000000 (0000ms, 2568ms total)
TB6B4 002:611 JLINK_ClrBPEx(BPHandle = 0x00000001)  returns 0x00 (0000ms, 2568ms total)
TB6B4 002:611 JLINK_ReadReg(R0)  returns 0x00000000 (0000ms, 2568ms total)
TB6B4 002:611 JLINK_WriteReg(R0, 0x08000000)  returns 0x00 (0000ms, 2568ms total)
TB6B4 002:611 JLINK_WriteReg(R1, 0x00B71B00)  returns 0x00 (0000ms, 2568ms total)
TB6B4 002:611 JLINK_WriteReg(R2, 0x00000001)  returns 0x00 (0000ms, 2568ms total)
TB6B4 002:611 JLINK_WriteReg(R3, 0x00000000)  returns 0x00 (0000ms, 2568ms total)
TB6B4 002:611 JLINK_WriteReg(R4, 0x00000000)  returns 0x00 (0000ms, 2568ms total)
TB6B4 002:611 JLINK_WriteReg(R5, 0x00000000)  returns 0x00 (0001ms, 2569ms total)
TB6B4 002:612 JLINK_WriteReg(R6, 0x00000000)  returns 0x00 (0000ms, 2569ms total)
TB6B4 002:612 JLINK_WriteReg(R7, 0x00000000)  returns 0x00 (0000ms, 2569ms total)
TB6B4 002:612 JLINK_WriteReg(R8, 0x00000000)  returns 0x00 (0000ms, 2569ms total)
TB6B4 002:612 JLINK_WriteReg(R9, 0x20000160)  returns 0x00 (0000ms, 2569ms total)
TB6B4 002:612 JLINK_WriteReg(R10, 0x00000000)  returns 0x00 (0000ms, 2569ms total)
TB6B4 002:612 JLINK_WriteReg(R11, 0x00000000)  returns 0x00 (0000ms, 2569ms total)
TB6B4 002:612 JLINK_WriteReg(R12, 0x00000000)  returns 0x00 (0000ms, 2569ms total)
TB6B4 002:612 JLINK_WriteReg(R13 (SP), 0x20000800)  returns 0x00 (0000ms, 2569ms total)
TB6B4 002:612 JLINK_WriteReg(R14, 0x20000001)  returns 0x00 (0000ms, 2569ms total)
TB6B4 002:612 JLINK_WriteReg(R15 (PC), 0x2000007C)  returns 0x00 (0000ms, 2569ms total)
TB6B4 002:612 JLINK_WriteReg(XPSR, 0x01000000)  returns 0x00 (0000ms, 2569ms total)
TB6B4 002:612 JLINK_WriteReg(MSP, 0x20000800)  returns 0x00 (0000ms, 2569ms total)
TB6B4 002:612 JLINK_WriteReg(PSP, 0x20000800)  returns 0x00 (0000ms, 2569ms total)
TB6B4 002:612 JLINK_WriteReg(CFBP, 0x00000000)  returns 0x00 (0000ms, 2569ms total)
TB6B4 002:612 JLINK_SetBPEx(Addr = 0x20000000, Type = 0xFFFFFFF2)  returns 0x00000002 (0000ms, 2569ms total)
TB6B4 002:612 JLINK_Go() (0001ms, 2570ms total)
TB6B4 002:613 JLINK_IsHalted()  returns FALSE (0000ms, 2570ms total)
TB6B4 002:669 JLINK_IsHalted() -- CPU_ReadMem(2 bytes @ 0x20000000)  returns TRUE (0002ms, 2572ms total)
TB6B4 002:671 JLINK_ReadReg(R15 (PC))  returns 0x20000000 (0000ms, 2570ms total)
TB6B4 002:671 JLINK_ClrBPEx(BPHandle = 0x00000002)  returns 0x00 (0000ms, 2570ms total)
TB6B4 002:671 JLINK_ReadReg(R0)  returns 0x00000000 (0000ms, 2570ms total)
TB6B4 002:722 JLINK_WriteReg(R0, 0x00000001)  returns 0x00 (0000ms, 2570ms total)
TB6B4 002:722 JLINK_WriteReg(R1, 0x00B71B00)  returns 0x00 (0000ms, 2570ms total)
TB6B4 002:722 JLINK_WriteReg(R2, 0x00000001)  returns 0x00 (0000ms, 2570ms total)
TB6B4 002:722 JLINK_WriteReg(R3, 0x00000000)  returns 0x00 (0000ms, 2570ms total)
TB6B4 002:722 JLINK_WriteReg(R4, 0x00000000)  returns 0x00 (0000ms, 2570ms total)
TB6B4 002:722 JLINK_WriteReg(R5, 0x00000000)  returns 0x00 (0000ms, 2570ms total)
TB6B4 002:722 JLINK_WriteReg(R6, 0x00000000)  returns 0x00 (0000ms, 2570ms total)
TB6B4 002:722 JLINK_WriteReg(R7, 0x00000000)  returns 0x00 (0000ms, 2570ms total)
TB6B4 002:722 JLINK_WriteReg(R8, 0x00000000)  returns 0x00 (0000ms, 2570ms total)
TB6B4 002:722 JLINK_WriteReg(R9, 0x20000160)  returns 0x00 (0000ms, 2570ms total)
TB6B4 002:722 JLINK_WriteReg(R10, 0x00000000)  returns 0x00 (0000ms, 2570ms total)
TB6B4 002:722 JLINK_WriteReg(R11, 0x00000000)  returns 0x00 (0000ms, 2570ms total)
TB6B4 002:722 JLINK_WriteReg(R12, 0x00000000)  returns 0x00 (0000ms, 2570ms total)
TB6B4 002:722 JLINK_WriteReg(R13 (SP), 0x20000800)  returns 0x00 (0000ms, 2570ms total)
TB6B4 002:722 JLINK_WriteReg(R14, 0x20000001)  returns 0x00 (0000ms, 2570ms total)
TB6B4 002:722 JLINK_WriteReg(R15 (PC), 0x2000006A)  returns 0x00 (0000ms, 2570ms total)
TB6B4 002:722 JLINK_WriteReg(XPSR, 0x01000000)  returns 0x00 (0000ms, 2570ms total)
TB6B4 002:722 JLINK_WriteReg(MSP, 0x20000800)  returns 0x00 (0000ms, 2570ms total)
TB6B4 002:722 JLINK_WriteReg(PSP, 0x20000800)  returns 0x00 (0000ms, 2570ms total)
TB6B4 002:722 JLINK_WriteReg(CFBP, 0x00000000)  returns 0x00 (0000ms, 2570ms total)
TB6B4 002:722 JLINK_SetBPEx(Addr = 0x20000000, Type = 0xFFFFFFF2)  returns 0x00000003 (0000ms, 2570ms total)
TB6B4 002:722 JLINK_Go() (0001ms, 2571ms total)
TB6B4 002:723 JLINK_IsHalted() -- CPU_ReadMem(2 bytes @ 0x20000000)  returns TRUE (0003ms, 2574ms total)
TB6B4 002:726 JLINK_ReadReg(R15 (PC))  returns 0x20000000 (0000ms, 2571ms total)
TB6B4 002:726 JLINK_ClrBPEx(BPHandle = 0x00000003)  returns 0x00 (0000ms, 2571ms total)
TB6B4 002:726 JLINK_ReadReg(R0)  returns 0x00000000 (0000ms, 2571ms total)
TB6B4 002:728 JLINK_WriteMem(0x20000000, 0x0164 Bytes, ...) - Data: 00 BE 0A E0 0D 78 2D 06 68 40 08 24 40 00 00 D3 ... -- CPU_WriteMem(356 bytes @ 0x20000000)  returns 0x164 (0003ms, 2574ms total)
TB6B4 002:731 JLINK_WriteReg(R0, 0x08000000)  returns 0x00 (0000ms, 2574ms total)
TB6B4 002:731 JLINK_WriteReg(R1, 0x00B71B00)  returns 0x00 (0000ms, 2574ms total)
TB6B4 002:731 JLINK_WriteReg(R2, 0x00000002)  returns 0x00 (0000ms, 2574ms total)
TB6B4 002:731 JLINK_WriteReg(R3, 0x00000000)  returns 0x00 (0000ms, 2574ms total)
TB6B4 002:731 JLINK_WriteReg(R4, 0x00000000)  returns 0x00 (0000ms, 2574ms total)
TB6B4 002:731 JLINK_WriteReg(R5, 0x00000000)  returns 0x00 (0000ms, 2574ms total)
TB6B4 002:731 JLINK_WriteReg(R6, 0x00000000)  returns 0x00 (0000ms, 2574ms total)
TB6B4 002:731 JLINK_WriteReg(R7, 0x00000000)  returns 0x00 (0000ms, 2574ms total)
TB6B4 002:731 JLINK_WriteReg(R8, 0x00000000)  returns 0x00 (0000ms, 2574ms total)
TB6B4 002:731 JLINK_WriteReg(R9, 0x20000160)  returns 0x00 (0000ms, 2574ms total)
TB6B4 002:731 JLINK_WriteReg(R10, 0x00000000)  returns 0x00 (0000ms, 2574ms total)
TB6B4 002:731 JLINK_WriteReg(R11, 0x00000000)  returns 0x00 (0000ms, 2574ms total)
TB6B4 002:731 JLINK_WriteReg(R12, 0x00000000)  returns 0x00 (0000ms, 2574ms total)
TB6B4 002:731 JLINK_WriteReg(R13 (SP), 0x20000800)  returns 0x00 (0000ms, 2574ms total)
TB6B4 002:731 JLINK_WriteReg(R14, 0x20000001)  returns 0x00 (0000ms, 2574ms total)
TB6B4 002:731 JLINK_WriteReg(R15 (PC), 0x20000038)  returns 0x00 (0000ms, 2574ms total)
TB6B4 002:731 JLINK_WriteReg(XPSR, 0x01000000)  returns 0x00 (0000ms, 2574ms total)
TB6B4 002:731 JLINK_WriteReg(MSP, 0x20000800)  returns 0x00 (0000ms, 2574ms total)
TB6B4 002:731 JLINK_WriteReg(PSP, 0x20000800)  returns 0x00 (0000ms, 2574ms total)
TB6B4 002:731 JLINK_WriteReg(CFBP, 0x00000000)  returns 0x00 (0000ms, 2574ms total)
TB6B4 002:731 JLINK_SetBPEx(Addr = 0x20000000, Type = 0xFFFFFFF2) -- CPU_ReadMem(2 bytes @ 0x20000000)  returns 0x00000004 (0000ms, 2574ms total)
TB6B4 002:731 JLINK_Go() -- CPU_WriteMem(2 bytes @ 0x20000000) (0002ms, 2576ms total)
TB6B4 002:733 JLINK_IsHalted() -- CPU_ReadMem(2 bytes @ 0x20000000)  returns TRUE (0003ms, 2579ms total)
TB6B4 002:736 JLINK_ReadReg(R15 (PC))  returns 0x20000000 (0000ms, 2576ms total)
TB6B4 002:736 JLINK_ClrBPEx(BPHandle = 0x00000004)  returns 0x00 (0000ms, 2576ms total)
TB6B4 002:736 JLINK_ReadReg(R0)  returns 0x00000000 (0000ms, 2576ms total)
TB6B4 002:736 JLINK_WriteMem(0x20000164, 0x0400 Bytes, ...) - Data: 60 06 00 20 45 01 00 08 8D 3A 00 08 8F 3A 00 08 ... -- CPU_WriteMem(1024 bytes @ 0x20000164)  returns 0x400 (0006ms, 2582ms total)
TB6B4 002:742 JLINK_WriteReg(R0, 0x08000000)  returns 0x00 (0000ms, 2582ms total)
TB6B4 002:742 JLINK_WriteReg(R1, 0x00000400)  returns 0x00 (0000ms, 2582ms total)
TB6B4 002:742 JLINK_WriteReg(R2, 0x20000164)  returns 0x00 (0000ms, 2582ms total)
TB6B4 002:742 JLINK_WriteReg(R3, 0x00000000)  returns 0x00 (0000ms, 2582ms total)
TB6B4 002:742 JLINK_WriteReg(R4, 0x00000000)  returns 0x00 (0000ms, 2582ms total)
TB6B4 002:742 JLINK_WriteReg(R5, 0x00000000)  returns 0x00 (0000ms, 2582ms total)
TB6B4 002:742 JLINK_WriteReg(R6, 0x00000000)  returns 0x00 (0000ms, 2582ms total)
TB6B4 002:742 JLINK_WriteReg(R7, 0x00000000)  returns 0x00 (0000ms, 2582ms total)
TB6B4 002:742 JLINK_WriteReg(R8, 0x00000000)  returns 0x00 (0000ms, 2582ms total)
TB6B4 002:742 JLINK_WriteReg(R9, 0x20000160)  returns 0x00 (0000ms, 2582ms total)
TB6B4 002:742 JLINK_WriteReg(R10, 0x00000000)  returns 0x00 (0000ms, 2582ms total)
TB6B4 002:742 JLINK_WriteReg(R11, 0x00000000)  returns 0x00 (0000ms, 2582ms total)
TB6B4 002:742 JLINK_WriteReg(R12, 0x00000000)  returns 0x00 (0000ms, 2582ms total)
TB6B4 002:742 JLINK_WriteReg(R13 (SP), 0x20000800)  returns 0x00 (0000ms, 2582ms total)
TB6B4 002:742 JLINK_WriteReg(R14, 0x20000001)  returns 0x00 (0000ms, 2582ms total)
TB6B4 002:742 JLINK_WriteReg(R15 (PC), 0x200000F4)  returns 0x00 (0000ms, 2582ms total)
TB6B4 002:742 JLINK_WriteReg(XPSR, 0x01000000)  returns 0x00 (0000ms, 2582ms total)
TB6B4 002:742 JLINK_WriteReg(MSP, 0x20000800)  returns 0x00 (0000ms, 2582ms total)
TB6B4 002:742 JLINK_WriteReg(PSP, 0x20000800)  returns 0x00 (0000ms, 2582ms total)
TB6B4 002:742 JLINK_WriteReg(CFBP, 0x00000000)  returns 0x00 (0000ms, 2582ms total)
TB6B4 002:742 JLINK_SetBPEx(Addr = 0x20000000, Type = 0xFFFFFFF2)  returns 0x00000005 (0000ms, 2582ms total)
TB6B4 002:742 JLINK_Go() (0001ms, 2583ms total)
TB6B4 002:743 JLINK_IsHalted()  returns FALSE (0001ms, 2584ms total)
TB6B4 002:845 JLINK_IsHalted() -- CPU_ReadMem(2 bytes @ 0x20000000)  returns TRUE (0002ms, 2585ms total)
TB6B4 002:847 JLINK_ReadReg(R15 (PC))  returns 0x20000000 (0000ms, 2583ms total)
TB6B4 002:847 JLINK_ClrBPEx(BPHandle = 0x00000005)  returns 0x00 (0000ms, 2583ms total)
TB6B4 002:847 JLINK_ReadReg(R0)  returns 0x00000000 (0000ms, 2583ms total)
TB6B4 002:848 JLINK_WriteMem(0x20000164, 0x0400 Bytes, ...) - Data: 70 47 00 B5 02 46 04 23 FF F7 E3 FF 03 46 03 E0 ... -- CPU_WriteMem(1024 bytes @ 0x20000164)  returns 0x400 (0005ms, 2588ms total)
TB6B4 002:853 JLINK_WriteReg(R0, 0x08000400)  returns 0x00 (0000ms, 2588ms total)
TB6B4 002:853 JLINK_WriteReg(R1, 0x00000400)  returns 0x00 (0000ms, 2588ms total)
TB6B4 002:853 JLINK_WriteReg(R2, 0x20000164)  returns 0x00 (0000ms, 2588ms total)
TB6B4 002:853 JLINK_WriteReg(R3, 0x00000000)  returns 0x00 (0000ms, 2588ms total)
TB6B4 002:853 JLINK_WriteReg(R4, 0x00000000)  returns 0x00 (0000ms, 2588ms total)
TB6B4 002:853 JLINK_WriteReg(R5, 0x00000000)  returns 0x00 (0000ms, 2588ms total)
TB6B4 002:853 JLINK_WriteReg(R6, 0x00000000)  returns 0x00 (0000ms, 2588ms total)
TB6B4 002:853 JLINK_WriteReg(R7, 0x00000000)  returns 0x00 (0000ms, 2588ms total)
TB6B4 002:853 JLINK_WriteReg(R8, 0x00000000)  returns 0x00 (0000ms, 2588ms total)
TB6B4 002:853 JLINK_WriteReg(R9, 0x20000160)  returns 0x00 (0000ms, 2588ms total)
TB6B4 002:853 JLINK_WriteReg(R10, 0x00000000)  returns 0x00 (0000ms, 2588ms total)
TB6B4 002:853 JLINK_WriteReg(R11, 0x00000000)  returns 0x00 (0000ms, 2588ms total)
TB6B4 002:853 JLINK_WriteReg(R12, 0x00000000)  returns 0x00 (0000ms, 2588ms total)
TB6B4 002:853 JLINK_WriteReg(R13 (SP), 0x20000800)  returns 0x00 (0000ms, 2588ms total)
TB6B4 002:853 JLINK_WriteReg(R14, 0x20000001)  returns 0x00 (0000ms, 2588ms total)
TB6B4 002:853 JLINK_WriteReg(R15 (PC), 0x200000F4)  returns 0x00 (0000ms, 2588ms total)
TB6B4 002:853 JLINK_WriteReg(XPSR, 0x01000000)  returns 0x00 (0000ms, 2588ms total)
TB6B4 002:853 JLINK_WriteReg(MSP, 0x20000800)  returns 0x00 (0000ms, 2588ms total)
TB6B4 002:853 JLINK_WriteReg(PSP, 0x20000800)  returns 0x00 (0000ms, 2588ms total)
TB6B4 002:853 JLINK_WriteReg(CFBP, 0x00000000)  returns 0x00 (0000ms, 2588ms total)
TB6B4 002:853 JLINK_SetBPEx(Addr = 0x20000000, Type = 0xFFFFFFF2)  returns 0x00000006 (0000ms, 2588ms total)
TB6B4 002:853 JLINK_Go() (0001ms, 2589ms total)
TB6B4 002:854 JLINK_IsHalted()  returns FALSE (0001ms, 2590ms total)
TB6B4 002:859 JLINK_IsHalted()  returns FALSE (0000ms, 2589ms total)
TB6B4 002:861 JLINK_IsHalted()  returns FALSE (0000ms, 2589ms total)
TB6B4 002:863 JLINK_IsHalted()  returns FALSE (0000ms, 2589ms total)
TB6B4 002:865 JLINK_IsHalted()  returns FALSE (0000ms, 2589ms total)
TB6B4 002:870 JLINK_IsHalted()  returns FALSE (0000ms, 2589ms total)
TB6B4 002:872 JLINK_IsHalted()  returns FALSE (0000ms, 2589ms total)
TB6B4 002:874 JLINK_IsHalted()  returns FALSE (0000ms, 2589ms total)
TB6B4 002:876 JLINK_IsHalted()  returns FALSE (0000ms, 2589ms total)
TB6B4 002:878 JLINK_IsHalted()  returns FALSE (0000ms, 2589ms total)
TB6B4 002:881 JLINK_IsHalted()  returns FALSE (0000ms, 2589ms total)
TB6B4 002:883 JLINK_IsHalted()  returns FALSE (0000ms, 2589ms total)
TB6B4 002:885 JLINK_IsHalted()  returns FALSE (0000ms, 2589ms total)
TB6B4 002:887 JLINK_IsHalted() -- CPU_ReadMem(2 bytes @ 0x20000000)  returns TRUE (0002ms, 2591ms total)
TB6B4 002:889 JLINK_ReadReg(R15 (PC))  returns 0x20000000 (0000ms, 2589ms total)
TB6B4 002:889 JLINK_ClrBPEx(BPHandle = 0x00000006)  returns 0x00 (0000ms, 2589ms total)
TB6B4 002:889 JLINK_ReadReg(R0)  returns 0x00000000 (0000ms, 2589ms total)
TB6B4 002:890 JLINK_WriteMem(0x20000164, 0x0400 Bytes, ...) - Data: 05 2C 06 D0 41 48 00 69 41 F6 DF 71 08 40 3F 49 ... -- CPU_WriteMem(1024 bytes @ 0x20000164)  returns 0x400 (0005ms, 2594ms total)
TB6B4 002:895 JLINK_WriteReg(R0, 0x08000800)  returns 0x00 (0000ms, 2594ms total)
TB6B4 002:895 JLINK_WriteReg(R1, 0x00000400)  returns 0x00 (0000ms, 2594ms total)
TB6B4 002:895 JLINK_WriteReg(R2, 0x20000164)  returns 0x00 (0000ms, 2594ms total)
TB6B4 002:895 JLINK_WriteReg(R3, 0x00000000)  returns 0x00 (0000ms, 2594ms total)
TB6B4 002:895 JLINK_WriteReg(R4, 0x00000000)  returns 0x00 (0000ms, 2594ms total)
TB6B4 002:895 JLINK_WriteReg(R5, 0x00000000)  returns 0x00 (0000ms, 2594ms total)
TB6B4 002:895 JLINK_WriteReg(R6, 0x00000000)  returns 0x00 (0000ms, 2594ms total)
TB6B4 002:895 JLINK_WriteReg(R7, 0x00000000)  returns 0x00 (0000ms, 2594ms total)
TB6B4 002:895 JLINK_WriteReg(R8, 0x00000000)  returns 0x00 (0000ms, 2594ms total)
TB6B4 002:895 JLINK_WriteReg(R9, 0x20000160)  returns 0x00 (0000ms, 2594ms total)
TB6B4 002:895 JLINK_WriteReg(R10, 0x00000000)  returns 0x00 (0000ms, 2594ms total)
TB6B4 002:895 JLINK_WriteReg(R11, 0x00000000)  returns 0x00 (0000ms, 2594ms total)
TB6B4 002:895 JLINK_WriteReg(R12, 0x00000000)  returns 0x00 (0000ms, 2594ms total)
TB6B4 002:895 JLINK_WriteReg(R13 (SP), 0x20000800)  returns 0x00 (0000ms, 2594ms total)
TB6B4 002:895 JLINK_WriteReg(R14, 0x20000001)  returns 0x00 (0000ms, 2594ms total)
TB6B4 002:895 JLINK_WriteReg(R15 (PC), 0x200000F4)  returns 0x00 (0000ms, 2594ms total)
TB6B4 002:895 JLINK_WriteReg(XPSR, 0x01000000)  returns 0x00 (0000ms, 2594ms total)
TB6B4 002:895 JLINK_WriteReg(MSP, 0x20000800)  returns 0x00 (0000ms, 2594ms total)
TB6B4 002:895 JLINK_WriteReg(PSP, 0x20000800)  returns 0x00 (0000ms, 2594ms total)
TB6B4 002:895 JLINK_WriteReg(CFBP, 0x00000000)  returns 0x00 (0000ms, 2594ms total)
TB6B4 002:895 JLINK_SetBPEx(Addr = 0x20000000, Type = 0xFFFFFFF2)  returns 0x00000007 (0000ms, 2594ms total)
TB6B4 002:895 JLINK_Go() (0001ms, 2595ms total)
TB6B4 002:896 JLINK_IsHalted()  returns FALSE (0001ms, 2596ms total)
TB6B4 002:900 JLINK_IsHalted()  returns FALSE (0000ms, 2595ms total)
TB6B4 002:902 JLINK_IsHalted()  returns FALSE (0000ms, 2595ms total)
TB6B4 002:904 JLINK_IsHalted()  returns FALSE (0000ms, 2595ms total)
TB6B4 002:906 JLINK_IsHalted()  returns FALSE (0000ms, 2595ms total)
TB6B4 002:908 JLINK_IsHalted()  returns FALSE (0000ms, 2595ms total)
TB6B4 002:911 JLINK_IsHalted()  returns FALSE (0000ms, 2595ms total)
TB6B4 002:913 JLINK_IsHalted()  returns FALSE (0000ms, 2595ms total)
TB6B4 002:915 JLINK_IsHalted()  returns FALSE (0000ms, 2595ms total)
TB6B4 002:917 JLINK_IsHalted()  returns FALSE (0000ms, 2595ms total)
TB6B4 002:919 JLINK_IsHalted()  returns FALSE (0000ms, 2595ms total)
TB6B4 002:921 JLINK_IsHalted()  returns FALSE (0000ms, 2595ms total)
TB6B4 002:923 JLINK_IsHalted()  returns FALSE (0000ms, 2595ms total)
TB6B4 002:925 JLINK_IsHalted()  returns FALSE (0000ms, 2595ms total)
TB6B4 002:927 JLINK_IsHalted() -- CPU_ReadMem(2 bytes @ 0x20000000)  returns TRUE (0002ms, 2597ms total)
TB6B4 002:929 JLINK_ReadReg(R15 (PC))  returns 0x20000000 (0000ms, 2595ms total)
TB6B4 002:929 JLINK_ClrBPEx(BPHandle = 0x00000007)  returns 0x00 (0000ms, 2595ms total)
TB6B4 002:929 JLINK_ReadReg(R0)  returns 0x00000000 (0000ms, 2595ms total)
TB6B4 002:930 JLINK_WriteMem(0x20000164, 0x0400 Bytes, ...) - Data: 01 E0 1B 4E 71 60 F0 BD 30 B5 00 22 8B 07 1C 0F ... -- CPU_WriteMem(1024 bytes @ 0x20000164)  returns 0x400 (0005ms, 2600ms total)
TB6B4 002:935 JLINK_WriteReg(R0, 0x08000C00)  returns 0x00 (0000ms, 2600ms total)
TB6B4 002:935 JLINK_WriteReg(R1, 0x00000400)  returns 0x00 (0000ms, 2600ms total)
TB6B4 002:935 JLINK_WriteReg(R2, 0x20000164)  returns 0x00 (0000ms, 2600ms total)
TB6B4 002:935 JLINK_WriteReg(R3, 0x00000000)  returns 0x00 (0000ms, 2600ms total)
TB6B4 002:935 JLINK_WriteReg(R4, 0x00000000)  returns 0x00 (0000ms, 2600ms total)
TB6B4 002:935 JLINK_WriteReg(R5, 0x00000000)  returns 0x00 (0000ms, 2600ms total)
TB6B4 002:935 JLINK_WriteReg(R6, 0x00000000)  returns 0x00 (0000ms, 2600ms total)
TB6B4 002:935 JLINK_WriteReg(R7, 0x00000000)  returns 0x00 (0000ms, 2600ms total)
TB6B4 002:935 JLINK_WriteReg(R8, 0x00000000)  returns 0x00 (0000ms, 2600ms total)
TB6B4 002:935 JLINK_WriteReg(R9, 0x20000160)  returns 0x00 (0000ms, 2600ms total)
TB6B4 002:935 JLINK_WriteReg(R10, 0x00000000)  returns 0x00 (0000ms, 2600ms total)
TB6B4 002:935 JLINK_WriteReg(R11, 0x00000000)  returns 0x00 (0000ms, 2600ms total)
TB6B4 002:935 JLINK_WriteReg(R12, 0x00000000)  returns 0x00 (0000ms, 2600ms total)
TB6B4 002:935 JLINK_WriteReg(R13 (SP), 0x20000800)  returns 0x00 (0000ms, 2600ms total)
TB6B4 002:935 JLINK_WriteReg(R14, 0x20000001)  returns 0x00 (0000ms, 2600ms total)
TB6B4 002:935 JLINK_WriteReg(R15 (PC), 0x200000F4)  returns 0x00 (0000ms, 2600ms total)
TB6B4 002:935 JLINK_WriteReg(XPSR, 0x01000000)  returns 0x00 (0000ms, 2600ms total)
TB6B4 002:935 JLINK_WriteReg(MSP, 0x20000800)  returns 0x00 (0000ms, 2600ms total)
TB6B4 002:935 JLINK_WriteReg(PSP, 0x20000800)  returns 0x00 (0000ms, 2600ms total)
TB6B4 002:935 JLINK_WriteReg(CFBP, 0x00000000)  returns 0x00 (0000ms, 2600ms total)
TB6B4 002:935 JLINK_SetBPEx(Addr = 0x20000000, Type = 0xFFFFFFF2)  returns 0x00000008 (0000ms, 2600ms total)
TB6B4 002:935 JLINK_Go() (0001ms, 2601ms total)
TB6B4 002:936 JLINK_IsHalted()  returns FALSE (0001ms, 2602ms total)
TB6B4 002:941 JLINK_IsHalted()  returns FALSE (0000ms, 2601ms total)
TB6B4 002:948 JLINK_IsHalted()  returns FALSE (0000ms, 2601ms total)
TB6B4 002:950 JLINK_IsHalted()  returns FALSE (0000ms, 2601ms total)
TB6B4 002:952 JLINK_IsHalted()  returns FALSE (0000ms, 2601ms total)
TB6B4 002:955 JLINK_IsHalted()  returns FALSE (0000ms, 2601ms total)
TB6B4 002:957 JLINK_IsHalted()  returns FALSE (0000ms, 2601ms total)
TB6B4 002:960 JLINK_IsHalted()  returns FALSE (0000ms, 2601ms total)
TB6B4 002:962 JLINK_IsHalted()  returns FALSE (0000ms, 2601ms total)
TB6B4 002:964 JLINK_IsHalted()  returns FALSE (0000ms, 2601ms total)
TB6B4 002:966 JLINK_IsHalted()  returns FALSE (0000ms, 2601ms total)
TB6B4 002:968 JLINK_IsHalted()  returns FALSE (0000ms, 2601ms total)
TB6B4 002:970 JLINK_IsHalted() -- CPU_ReadMem(2 bytes @ 0x20000000)  returns TRUE (0002ms, 2603ms total)
TB6B4 002:972 JLINK_ReadReg(R15 (PC))  returns 0x20000000 (0000ms, 2601ms total)
TB6B4 002:972 JLINK_ClrBPEx(BPHandle = 0x00000008)  returns 0x00 (0000ms, 2601ms total)
TB6B4 002:972 JLINK_ReadReg(R0)  returns 0x00000000 (0000ms, 2601ms total)
TB6B4 002:972 JLINK_WriteMem(0x20000164, 0x0400 Bytes, ...) - Data: FF FF F6 FE 00 00 42 42 80 04 42 42 00 12 7A 00 ... -- CPU_WriteMem(1024 bytes @ 0x20000164)  returns 0x400 (0006ms, 2607ms total)
TB6B4 002:978 JLINK_WriteReg(R0, 0x08001000)  returns 0x00 (0000ms, 2607ms total)
TB6B4 002:978 JLINK_WriteReg(R1, 0x00000400)  returns 0x00 (0000ms, 2607ms total)
TB6B4 002:978 JLINK_WriteReg(R2, 0x20000164)  returns 0x00 (0000ms, 2607ms total)
TB6B4 002:978 JLINK_WriteReg(R3, 0x00000000)  returns 0x00 (0000ms, 2607ms total)
TB6B4 002:978 JLINK_WriteReg(R4, 0x00000000)  returns 0x00 (0000ms, 2607ms total)
TB6B4 002:978 JLINK_WriteReg(R5, 0x00000000)  returns 0x00 (0000ms, 2607ms total)
TB6B4 002:978 JLINK_WriteReg(R6, 0x00000000)  returns 0x00 (0000ms, 2607ms total)
TB6B4 002:978 JLINK_WriteReg(R7, 0x00000000)  returns 0x00 (0000ms, 2607ms total)
TB6B4 002:978 JLINK_WriteReg(R8, 0x00000000)  returns 0x00 (0000ms, 2607ms total)
TB6B4 002:978 JLINK_WriteReg(R9, 0x20000160)  returns 0x00 (0000ms, 2607ms total)
TB6B4 002:978 JLINK_WriteReg(R10, 0x00000000)  returns 0x00 (0000ms, 2607ms total)
TB6B4 002:978 JLINK_WriteReg(R11, 0x00000000)  returns 0x00 (0000ms, 2607ms total)
TB6B4 002:978 JLINK_WriteReg(R12, 0x00000000)  returns 0x00 (0000ms, 2607ms total)
TB6B4 002:978 JLINK_WriteReg(R13 (SP), 0x20000800)  returns 0x00 (0000ms, 2607ms total)
TB6B4 002:978 JLINK_WriteReg(R14, 0x20000001)  returns 0x00 (0000ms, 2607ms total)
TB6B4 002:978 JLINK_WriteReg(R15 (PC), 0x200000F4)  returns 0x00 (0000ms, 2607ms total)
TB6B4 002:978 JLINK_WriteReg(XPSR, 0x01000000)  returns 0x00 (0000ms, 2607ms total)
TB6B4 002:978 JLINK_WriteReg(MSP, 0x20000800)  returns 0x00 (0000ms, 2607ms total)
TB6B4 002:978 JLINK_WriteReg(PSP, 0x20000800)  returns 0x00 (0000ms, 2607ms total)
TB6B4 002:978 JLINK_WriteReg(CFBP, 0x00000000)  returns 0x00 (0000ms, 2607ms total)
TB6B4 002:978 JLINK_SetBPEx(Addr = 0x20000000, Type = 0xFFFFFFF2)  returns 0x00000009 (0000ms, 2607ms total)
TB6B4 002:978 JLINK_Go() (0001ms, 2608ms total)
TB6B4 002:979 JLINK_IsHalted()  returns FALSE (0001ms, 2609ms total)
TB6B4 002:984 JLINK_IsHalted()  returns FALSE (0000ms, 2608ms total)
TB6B4 002:986 JLINK_IsHalted()  returns FALSE (0000ms, 2608ms total)
TB6B4 002:988 JLINK_IsHalted()  returns FALSE (0000ms, 2608ms total)
TB6B4 002:990 JLINK_IsHalted()  returns FALSE (0000ms, 2608ms total)
TB6B4 002:992 JLINK_IsHalted()  returns FALSE (0000ms, 2608ms total)
TB6B4 002:994 JLINK_IsHalted()  returns FALSE (0000ms, 2608ms total)
TB6B4 002:996 JLINK_IsHalted()  returns FALSE (0000ms, 2608ms total)
TB6B4 002:997 JLINK_IsHalted()  returns FALSE (0000ms, 2608ms total)
TB6B4 002:999 JLINK_IsHalted()  returns FALSE (0000ms, 2608ms total)
TB6B4 003:000 JLINK_IsHalted()  returns FALSE (0000ms, 2608ms total)
TB6B4 003:002 JLINK_IsHalted()  returns FALSE (0000ms, 2608ms total)
TB6B4 003:004 JLINK_IsHalted()  returns FALSE (0000ms, 2608ms total)
TB6B4 003:006 JLINK_IsHalted()  returns FALSE (0000ms, 2608ms total)
TB6B4 003:008 JLINK_IsHalted()  returns FALSE (0000ms, 2608ms total)
TB6B4 003:010 JLINK_IsHalted() -- CPU_ReadMem(2 bytes @ 0x20000000)  returns TRUE (0002ms, 2610ms total)
TB6B4 003:012 JLINK_ReadReg(R15 (PC))  returns 0x20000000 (0000ms, 2608ms total)
TB6B4 003:012 JLINK_ClrBPEx(BPHandle = 0x00000009)  returns 0x00 (0000ms, 2608ms total)
TB6B4 003:012 JLINK_ReadReg(R0)  returns 0x00000000 (0000ms, 2608ms total)
TB6B4 003:012 JLINK_WriteMem(0x20000164, 0x0400 Bytes, ...) - Data: 35 40 05 84 03 8C 84 88 82 8B 48 F6 FF 75 2A 40 ... -- CPU_WriteMem(1024 bytes @ 0x20000164)  returns 0x400 (0006ms, 2614ms total)
TB6B4 003:018 JLINK_WriteReg(R0, 0x08001400)  returns 0x00 (0000ms, 2614ms total)
TB6B4 003:018 JLINK_WriteReg(R1, 0x00000400)  returns 0x00 (0000ms, 2614ms total)
TB6B4 003:018 JLINK_WriteReg(R2, 0x20000164)  returns 0x00 (0000ms, 2614ms total)
TB6B4 003:018 JLINK_WriteReg(R3, 0x00000000)  returns 0x00 (0000ms, 2614ms total)
TB6B4 003:018 JLINK_WriteReg(R4, 0x00000000)  returns 0x00 (0000ms, 2614ms total)
TB6B4 003:018 JLINK_WriteReg(R5, 0x00000000)  returns 0x00 (0000ms, 2614ms total)
TB6B4 003:018 JLINK_WriteReg(R6, 0x00000000)  returns 0x00 (0000ms, 2614ms total)
TB6B4 003:018 JLINK_WriteReg(R7, 0x00000000)  returns 0x00 (0000ms, 2614ms total)
TB6B4 003:018 JLINK_WriteReg(R8, 0x00000000)  returns 0x00 (0000ms, 2614ms total)
TB6B4 003:018 JLINK_WriteReg(R9, 0x20000160)  returns 0x00 (0000ms, 2614ms total)
TB6B4 003:018 JLINK_WriteReg(R10, 0x00000000)  returns 0x00 (0000ms, 2614ms total)
TB6B4 003:018 JLINK_WriteReg(R11, 0x00000000)  returns 0x00 (0000ms, 2614ms total)
TB6B4 003:018 JLINK_WriteReg(R12, 0x00000000)  returns 0x00 (0000ms, 2614ms total)
TB6B4 003:018 JLINK_WriteReg(R13 (SP), 0x20000800)  returns 0x00 (0000ms, 2614ms total)
TB6B4 003:018 JLINK_WriteReg(R14, 0x20000001)  returns 0x00 (0000ms, 2614ms total)
TB6B4 003:018 JLINK_WriteReg(R15 (PC), 0x200000F4)  returns 0x00 (0000ms, 2614ms total)
TB6B4 003:018 JLINK_WriteReg(XPSR, 0x01000000)  returns 0x00 (0000ms, 2614ms total)
TB6B4 003:018 JLINK_WriteReg(MSP, 0x20000800)  returns 0x00 (0000ms, 2614ms total)
TB6B4 003:018 JLINK_WriteReg(PSP, 0x20000800)  returns 0x00 (0000ms, 2614ms total)
TB6B4 003:018 JLINK_WriteReg(CFBP, 0x00000000)  returns 0x00 (0000ms, 2614ms total)
TB6B4 003:018 JLINK_SetBPEx(Addr = 0x20000000, Type = 0xFFFFFFF2)  returns 0x0000000A (0000ms, 2614ms total)
TB6B4 003:018 JLINK_Go() (0001ms, 2615ms total)
TB6B4 003:019 JLINK_IsHalted()  returns FALSE (0001ms, 2616ms total)
TB6B4 003:022 JLINK_IsHalted()  returns FALSE (0000ms, 2615ms total)
TB6B4 003:024 JLINK_IsHalted()  returns FALSE (0000ms, 2615ms total)
TB6B4 003:027 JLINK_IsHalted()  returns FALSE (0000ms, 2615ms total)
TB6B4 003:029 JLINK_IsHalted()  returns FALSE (0000ms, 2615ms total)
TB6B4 003:032 JLINK_IsHalted()  returns FALSE (0000ms, 2615ms total)
TB6B4 003:033 JLINK_IsHalted()  returns FALSE (0000ms, 2615ms total)
TB6B4 003:035 JLINK_IsHalted()  returns FALSE (0000ms, 2615ms total)
TB6B4 003:037 JLINK_IsHalted()  returns FALSE (0000ms, 2615ms total)
TB6B4 003:039 JLINK_IsHalted()  returns FALSE (0000ms, 2615ms total)
TB6B4 003:040 JLINK_IsHalted()  returns FALSE (0000ms, 2615ms total)
TB6B4 003:043 JLINK_IsHalted()  returns FALSE (0000ms, 2615ms total)
TB6B4 003:045 JLINK_IsHalted()  returns FALSE (0000ms, 2615ms total)
TB6B4 003:047 JLINK_IsHalted()  returns FALSE (0000ms, 2615ms total)
TB6B4 003:049 JLINK_IsHalted()  returns FALSE (0000ms, 2615ms total)
TB6B4 003:056 JLINK_IsHalted() -- CPU_ReadMem(2 bytes @ 0x20000000)  returns TRUE (0002ms, 2617ms total)
TB6B4 003:058 JLINK_ReadReg(R15 (PC))  returns 0x20000000 (0000ms, 2615ms total)
TB6B4 003:058 JLINK_ClrBPEx(BPHandle = 0x0000000A)  returns 0x00 (0000ms, 2615ms total)
TB6B4 003:058 JLINK_ReadReg(R0)  returns 0x00000000 (0000ms, 2615ms total)
TB6B4 003:059 JLINK_WriteMem(0x20000164, 0x0400 Bytes, ...) - Data: 1A 43 8B 88 1A 43 CB 88 1A 43 0B 89 1A 43 4B 89 ... -- CPU_WriteMem(1024 bytes @ 0x20000164)  returns 0x400 (0005ms, 2620ms total)
TB6B4 003:064 JLINK_WriteReg(R0, 0x08001800)  returns 0x00 (0000ms, 2620ms total)
TB6B4 003:064 JLINK_WriteReg(R1, 0x00000400)  returns 0x00 (0000ms, 2620ms total)
TB6B4 003:064 JLINK_WriteReg(R2, 0x20000164)  returns 0x00 (0000ms, 2620ms total)
TB6B4 003:064 JLINK_WriteReg(R3, 0x00000000)  returns 0x00 (0000ms, 2620ms total)
TB6B4 003:064 JLINK_WriteReg(R4, 0x00000000)  returns 0x00 (0000ms, 2620ms total)
TB6B4 003:064 JLINK_WriteReg(R5, 0x00000000)  returns 0x00 (0000ms, 2620ms total)
TB6B4 003:064 JLINK_WriteReg(R6, 0x00000000)  returns 0x00 (0000ms, 2620ms total)
TB6B4 003:064 JLINK_WriteReg(R7, 0x00000000)  returns 0x00 (0000ms, 2620ms total)
TB6B4 003:064 JLINK_WriteReg(R8, 0x00000000)  returns 0x00 (0000ms, 2620ms total)
TB6B4 003:064 JLINK_WriteReg(R9, 0x20000160)  returns 0x00 (0000ms, 2620ms total)
TB6B4 003:064 JLINK_WriteReg(R10, 0x00000000)  returns 0x00 (0000ms, 2620ms total)
TB6B4 003:064 JLINK_WriteReg(R11, 0x00000000)  returns 0x00 (0000ms, 2620ms total)
TB6B4 003:064 JLINK_WriteReg(R12, 0x00000000)  returns 0x00 (0000ms, 2620ms total)
TB6B4 003:064 JLINK_WriteReg(R13 (SP), 0x20000800)  returns 0x00 (0000ms, 2620ms total)
TB6B4 003:064 JLINK_WriteReg(R14, 0x20000001)  returns 0x00 (0000ms, 2620ms total)
TB6B4 003:064 JLINK_WriteReg(R15 (PC), 0x200000F4)  returns 0x00 (0000ms, 2620ms total)
TB6B4 003:064 JLINK_WriteReg(XPSR, 0x01000000)  returns 0x00 (0000ms, 2620ms total)
TB6B4 003:064 JLINK_WriteReg(MSP, 0x20000800)  returns 0x00 (0000ms, 2620ms total)
TB6B4 003:064 JLINK_WriteReg(PSP, 0x20000800)  returns 0x00 (0000ms, 2620ms total)
TB6B4 003:064 JLINK_WriteReg(CFBP, 0x00000000)  returns 0x00 (0000ms, 2620ms total)
TB6B4 003:064 JLINK_SetBPEx(Addr = 0x20000000, Type = 0xFFFFFFF2)  returns 0x0000000B (0000ms, 2620ms total)
TB6B4 003:064 JLINK_Go() (0001ms, 2621ms total)
TB6B4 003:065 JLINK_IsHalted()  returns FALSE (0001ms, 2622ms total)
TB6B4 003:069 JLINK_IsHalted()  returns FALSE (0000ms, 2621ms total)
TB6B4 003:071 JLINK_IsHalted()  returns FALSE (0000ms, 2621ms total)
TB6B4 003:073 JLINK_IsHalted()  returns FALSE (0000ms, 2621ms total)
TB6B4 003:075 JLINK_IsHalted()  returns FALSE (0000ms, 2621ms total)
TB6B4 003:077 JLINK_IsHalted()  returns FALSE (0000ms, 2621ms total)
TB6B4 003:078 JLINK_IsHalted()  returns FALSE (0000ms, 2621ms total)
TB6B4 003:080 JLINK_IsHalted()  returns FALSE (0000ms, 2621ms total)
TB6B4 003:082 JLINK_IsHalted()  returns FALSE (0000ms, 2621ms total)
TB6B4 003:083 JLINK_IsHalted()  returns FALSE (0000ms, 2621ms total)
TB6B4 003:085 JLINK_IsHalted()  returns FALSE (0000ms, 2621ms total)
TB6B4 003:089 JLINK_IsHalted()  returns FALSE (0000ms, 2621ms total)
TB6B4 003:090 JLINK_IsHalted()  returns FALSE (0000ms, 2621ms total)
TB6B4 003:092 JLINK_IsHalted()  returns FALSE (0000ms, 2621ms total)
TB6B4 003:093 JLINK_IsHalted()  returns FALSE (0000ms, 2621ms total)
TB6B4 003:095 JLINK_IsHalted()  returns FALSE (0000ms, 2621ms total)
TB6B4 003:098 JLINK_IsHalted() -- CPU_ReadMem(2 bytes @ 0x20000000)  returns TRUE (0002ms, 2623ms total)
TB6B4 003:100 JLINK_ReadReg(R15 (PC))  returns 0x20000000 (0000ms, 2621ms total)
TB6B4 003:100 JLINK_ClrBPEx(BPHandle = 0x0000000B)  returns 0x00 (0000ms, 2621ms total)
TB6B4 003:100 JLINK_ReadReg(R0)  returns 0x00000000 (0000ms, 2621ms total)
TB6B4 003:100 JLINK_WriteMem(0x20000164, 0x0400 Bytes, ...) - Data: 01 84 70 47 0A 46 00 21 01 8C 4F F6 DF 73 19 40 ... -- CPU_WriteMem(1024 bytes @ 0x20000164)  returns 0x400 (0006ms, 2627ms total)
TB6B4 003:106 JLINK_WriteReg(R0, 0x08001C00)  returns 0x00 (0000ms, 2627ms total)
TB6B4 003:106 JLINK_WriteReg(R1, 0x00000400)  returns 0x00 (0000ms, 2627ms total)
TB6B4 003:106 JLINK_WriteReg(R2, 0x20000164)  returns 0x00 (0000ms, 2627ms total)
TB6B4 003:106 JLINK_WriteReg(R3, 0x00000000)  returns 0x00 (0000ms, 2627ms total)
TB6B4 003:106 JLINK_WriteReg(R4, 0x00000000)  returns 0x00 (0000ms, 2627ms total)
TB6B4 003:106 JLINK_WriteReg(R5, 0x00000000)  returns 0x00 (0000ms, 2627ms total)
TB6B4 003:106 JLINK_WriteReg(R6, 0x00000000)  returns 0x00 (0000ms, 2627ms total)
TB6B4 003:106 JLINK_WriteReg(R7, 0x00000000)  returns 0x00 (0000ms, 2627ms total)
TB6B4 003:106 JLINK_WriteReg(R8, 0x00000000)  returns 0x00 (0000ms, 2627ms total)
TB6B4 003:106 JLINK_WriteReg(R9, 0x20000160)  returns 0x00 (0000ms, 2627ms total)
TB6B4 003:106 JLINK_WriteReg(R10, 0x00000000)  returns 0x00 (0000ms, 2627ms total)
TB6B4 003:106 JLINK_WriteReg(R11, 0x00000000)  returns 0x00 (0000ms, 2627ms total)
TB6B4 003:106 JLINK_WriteReg(R12, 0x00000000)  returns 0x00 (0000ms, 2627ms total)
TB6B4 003:106 JLINK_WriteReg(R13 (SP), 0x20000800)  returns 0x00 (0000ms, 2627ms total)
TB6B4 003:106 JLINK_WriteReg(R14, 0x20000001)  returns 0x00 (0000ms, 2627ms total)
TB6B4 003:106 JLINK_WriteReg(R15 (PC), 0x200000F4)  returns 0x00 (0000ms, 2627ms total)
TB6B4 003:106 JLINK_WriteReg(XPSR, 0x01000000)  returns 0x00 (0000ms, 2627ms total)
TB6B4 003:106 JLINK_WriteReg(MSP, 0x20000800)  returns 0x00 (0000ms, 2627ms total)
TB6B4 003:106 JLINK_WriteReg(PSP, 0x20000800)  returns 0x00 (0000ms, 2627ms total)
TB6B4 003:106 JLINK_WriteReg(CFBP, 0x00000000)  returns 0x00 (0000ms, 2627ms total)
TB6B4 003:106 JLINK_SetBPEx(Addr = 0x20000000, Type = 0xFFFFFFF2)  returns 0x0000000C (0000ms, 2627ms total)
TB6B4 003:106 JLINK_Go() (0002ms, 2629ms total)
TB6B4 003:108 JLINK_IsHalted()  returns FALSE (0001ms, 2630ms total)
TB6B4 003:111 JLINK_IsHalted()  returns FALSE (0000ms, 2629ms total)
TB6B4 003:113 JLINK_IsHalted()  returns FALSE (0000ms, 2629ms total)
TB6B4 003:115 JLINK_IsHalted()  returns FALSE (0000ms, 2629ms total)
TB6B4 003:118 JLINK_IsHalted()  returns FALSE (0000ms, 2629ms total)
TB6B4 003:120 JLINK_IsHalted()  returns FALSE (0000ms, 2629ms total)
TB6B4 003:122 JLINK_IsHalted()  returns FALSE (0000ms, 2629ms total)
TB6B4 003:124 JLINK_IsHalted()  returns FALSE (0000ms, 2629ms total)
TB6B4 003:126 JLINK_IsHalted()  returns FALSE (0000ms, 2629ms total)
TB6B4 003:128 JLINK_IsHalted()  returns FALSE (0000ms, 2629ms total)
TB6B4 003:132 JLINK_IsHalted()  returns FALSE (0000ms, 2629ms total)
TB6B4 003:134 JLINK_IsHalted()  returns FALSE (0000ms, 2629ms total)
TB6B4 003:136 JLINK_IsHalted()  returns FALSE (0000ms, 2629ms total)
TB6B4 003:138 JLINK_IsHalted()  returns FALSE (0000ms, 2629ms total)
TB6B4 003:140 JLINK_IsHalted() -- CPU_ReadMem(2 bytes @ 0x20000000)  returns TRUE (0002ms, 2631ms total)
TB6B4 003:142 JLINK_ReadReg(R15 (PC))  returns 0x20000000 (0000ms, 2629ms total)
TB6B4 003:142 JLINK_ClrBPEx(BPHandle = 0x0000000C)  returns 0x00 (0000ms, 2629ms total)
TB6B4 003:142 JLINK_ReadReg(R0)  returns 0x00000000 (0000ms, 2629ms total)
TB6B4 003:143 JLINK_WriteMem(0x20000164, 0x0400 Bytes, ...) - Data: 00 D1 00 BF 18 46 C1 F3 42 14 01 F0 1F 06 01 27 ... -- CPU_WriteMem(1024 bytes @ 0x20000164)  returns 0x400 (0005ms, 2634ms total)
TB6B4 003:148 JLINK_WriteReg(R0, 0x08002000)  returns 0x00 (0000ms, 2634ms total)
TB6B4 003:148 JLINK_WriteReg(R1, 0x00000400)  returns 0x00 (0000ms, 2634ms total)
TB6B4 003:148 JLINK_WriteReg(R2, 0x20000164)  returns 0x00 (0000ms, 2634ms total)
TB6B4 003:148 JLINK_WriteReg(R3, 0x00000000)  returns 0x00 (0000ms, 2634ms total)
TB6B4 003:148 JLINK_WriteReg(R4, 0x00000000)  returns 0x00 (0000ms, 2634ms total)
TB6B4 003:148 JLINK_WriteReg(R5, 0x00000000)  returns 0x00 (0000ms, 2634ms total)
TB6B4 003:148 JLINK_WriteReg(R6, 0x00000000)  returns 0x00 (0000ms, 2634ms total)
TB6B4 003:148 JLINK_WriteReg(R7, 0x00000000)  returns 0x00 (0000ms, 2634ms total)
TB6B4 003:148 JLINK_WriteReg(R8, 0x00000000)  returns 0x00 (0000ms, 2634ms total)
TB6B4 003:148 JLINK_WriteReg(R9, 0x20000160)  returns 0x00 (0000ms, 2634ms total)
TB6B4 003:148 JLINK_WriteReg(R10, 0x00000000)  returns 0x00 (0000ms, 2634ms total)
TB6B4 003:148 JLINK_WriteReg(R11, 0x00000000)  returns 0x00 (0000ms, 2634ms total)
TB6B4 003:148 JLINK_WriteReg(R12, 0x00000000)  returns 0x00 (0000ms, 2634ms total)
TB6B4 003:148 JLINK_WriteReg(R13 (SP), 0x20000800)  returns 0x00 (0000ms, 2634ms total)
TB6B4 003:148 JLINK_WriteReg(R14, 0x20000001)  returns 0x00 (0000ms, 2634ms total)
TB6B4 003:148 JLINK_WriteReg(R15 (PC), 0x200000F4)  returns 0x00 (0000ms, 2634ms total)
TB6B4 003:148 JLINK_WriteReg(XPSR, 0x01000000)  returns 0x00 (0000ms, 2634ms total)
TB6B4 003:148 JLINK_WriteReg(MSP, 0x20000800)  returns 0x00 (0000ms, 2634ms total)
TB6B4 003:148 JLINK_WriteReg(PSP, 0x20000800)  returns 0x00 (0000ms, 2634ms total)
TB6B4 003:148 JLINK_WriteReg(CFBP, 0x00000000)  returns 0x00 (0000ms, 2634ms total)
TB6B4 003:148 JLINK_SetBPEx(Addr = 0x20000000, Type = 0xFFFFFFF2)  returns 0x0000000D (0000ms, 2634ms total)
TB6B4 003:148 JLINK_Go() (0001ms, 2635ms total)
TB6B4 003:150 JLINK_IsHalted()  returns FALSE (0000ms, 2636ms total)
TB6B4 003:153 JLINK_IsHalted()  returns FALSE (0000ms, 2636ms total)
TB6B4 003:155 JLINK_IsHalted()  returns FALSE (0000ms, 2636ms total)
TB6B4 003:157 JLINK_IsHalted()  returns FALSE (0000ms, 2636ms total)
TB6B4 003:159 JLINK_IsHalted()  returns FALSE (0000ms, 2636ms total)
TB6B4 003:166 JLINK_IsHalted()  returns FALSE (0000ms, 2636ms total)
TB6B4 003:168 JLINK_IsHalted()  returns FALSE (0000ms, 2636ms total)
TB6B4 003:170 JLINK_IsHalted()  returns FALSE (0000ms, 2636ms total)
TB6B4 003:172 JLINK_IsHalted()  returns FALSE (0000ms, 2636ms total)
TB6B4 003:174 JLINK_IsHalted()  returns FALSE (0000ms, 2636ms total)
TB6B4 003:176 JLINK_IsHalted()  returns FALSE (0000ms, 2636ms total)
TB6B4 003:178 JLINK_IsHalted()  returns FALSE (0000ms, 2636ms total)
TB6B4 003:181 JLINK_IsHalted() -- CPU_ReadMem(2 bytes @ 0x20000000)  returns TRUE (0002ms, 2638ms total)
TB6B4 003:183 JLINK_ReadReg(R15 (PC))  returns 0x20000000 (0000ms, 2636ms total)
TB6B4 003:183 JLINK_ClrBPEx(BPHandle = 0x0000000D)  returns 0x00 (0000ms, 2636ms total)
TB6B4 003:183 JLINK_ReadReg(R0)  returns 0x00000000 (0000ms, 2636ms total)
TB6B4 003:184 JLINK_WriteMem(0x20000164, 0x0400 Bytes, ...) - Data: 96 E7 89 49 09 68 08 69 80 47 8A 48 90 E7 2D E9 ... -- CPU_WriteMem(1024 bytes @ 0x20000164)  returns 0x400 (0005ms, 2641ms total)
TB6B4 003:189 JLINK_WriteReg(R0, 0x08002400)  returns 0x00 (0000ms, 2641ms total)
TB6B4 003:189 JLINK_WriteReg(R1, 0x00000400)  returns 0x00 (0000ms, 2641ms total)
TB6B4 003:189 JLINK_WriteReg(R2, 0x20000164)  returns 0x00 (0000ms, 2641ms total)
TB6B4 003:189 JLINK_WriteReg(R3, 0x00000000)  returns 0x00 (0000ms, 2641ms total)
TB6B4 003:189 JLINK_WriteReg(R4, 0x00000000)  returns 0x00 (0000ms, 2641ms total)
TB6B4 003:189 JLINK_WriteReg(R5, 0x00000000)  returns 0x00 (0000ms, 2641ms total)
TB6B4 003:189 JLINK_WriteReg(R6, 0x00000000)  returns 0x00 (0000ms, 2641ms total)
TB6B4 003:189 JLINK_WriteReg(R7, 0x00000000)  returns 0x00 (0000ms, 2641ms total)
TB6B4 003:189 JLINK_WriteReg(R8, 0x00000000)  returns 0x00 (0000ms, 2641ms total)
TB6B4 003:189 JLINK_WriteReg(R9, 0x20000160)  returns 0x00 (0000ms, 2641ms total)
TB6B4 003:189 JLINK_WriteReg(R10, 0x00000000)  returns 0x00 (0000ms, 2641ms total)
TB6B4 003:189 JLINK_WriteReg(R11, 0x00000000)  returns 0x00 (0000ms, 2641ms total)
TB6B4 003:189 JLINK_WriteReg(R12, 0x00000000)  returns 0x00 (0000ms, 2641ms total)
TB6B4 003:189 JLINK_WriteReg(R13 (SP), 0x20000800)  returns 0x00 (0000ms, 2641ms total)
TB6B4 003:189 JLINK_WriteReg(R14, 0x20000001)  returns 0x00 (0000ms, 2641ms total)
TB6B4 003:189 JLINK_WriteReg(R15 (PC), 0x200000F4)  returns 0x00 (0000ms, 2641ms total)
TB6B4 003:189 JLINK_WriteReg(XPSR, 0x01000000)  returns 0x00 (0000ms, 2641ms total)
TB6B4 003:189 JLINK_WriteReg(MSP, 0x20000800)  returns 0x00 (0000ms, 2641ms total)
TB6B4 003:189 JLINK_WriteReg(PSP, 0x20000800)  returns 0x00 (0000ms, 2641ms total)
TB6B4 003:189 JLINK_WriteReg(CFBP, 0x00000000)  returns 0x00 (0000ms, 2641ms total)
TB6B4 003:189 JLINK_SetBPEx(Addr = 0x20000000, Type = 0xFFFFFFF2)  returns 0x0000000E (0000ms, 2641ms total)
TB6B4 003:189 JLINK_Go() (0001ms, 2642ms total)
TB6B4 003:190 JLINK_IsHalted()  returns FALSE (0001ms, 2643ms total)
TB6B4 003:197 JLINK_IsHalted()  returns FALSE (0000ms, 2642ms total)
TB6B4 003:199 JLINK_IsHalted()  returns FALSE (0000ms, 2642ms total)
